
T346C 000:000 SEGGER J-Link V6.16c Log File (0001ms, 0001ms total)
T346C 000:000 DLL Compiled: Jun 16 2017 18:14:49 (0001ms, 0001ms total)
T346C 000:000 Logging started @ 2018-11-27 11:35 (0001ms, 0001ms total)
T346C 000:001 JLINK_SetWarnOutHandler(...) (0000ms, 0001ms total)
T346C 000:001 JLINK_OpenEx(...)
Firmware: J-Link V9 compiled Oct  6 2017 16:38:28
Hardware: V9.40
S/N: 59402507
Feature(s): RDI, GDB, FlashDL, FlashBP, JFlashWEBSRV Webserver running on local port 19080 (0012ms, 0013ms total)
T346C 000:001   returns O.K. (0012ms, 0013ms total)
T346C 000:013 JLINK_GetEmuCaps()  returns 0xB9FF7BBF (0000ms, 0013ms total)
T346C 000:013 JLINK_TIF_GetAvailable(...) (0000ms, 0013ms total)
T346C 000:013 JLINK_SetErrorOutHandler(...) (0000ms, 0013ms total)
T346C 000:013 JLINK_ExecCommand("ProjectFile = "D:\Shulaiye\KeyBoard\MDK-ARM\JLinkSettings.ini"", ...). Device "STM32F030C8" selected.  returns 0x00 (0092ms, 0105ms total)
T346C 000:107 JLINK_ExecCommand("Device = STM32F030C8Tx", ...). Device "STM32F030C8" selected.  returns 0x00 (0004ms, 0109ms total)
T346C 000:111 JLINK_ExecCommand("DisableConnectionTimeout", ...).   returns 0x01 (0000ms, 0109ms total)
T346C 000:111 JLINK_GetHardwareVersion()  returns 0x16F30 (0000ms, 0109ms total)
T346C 000:111 JLINK_GetDLLVersion()  returns 61603 (0000ms, 0109ms total)
T346C 000:111 JLINK_GetFirmwareString(...) (0000ms, 0109ms total)
T346C 000:116 JLINK_GetDLLVersion()  returns 61603 (0000ms, 0109ms total)
T346C 000:116 JLINK_GetCompileDateTime() (0000ms, 0109ms total)
T346C 000:118 JLINK_GetFirmwareString(...) (0000ms, 0109ms total)
T346C 000:120 JLINK_GetHardwareVersion()  returns 0x16F30 (0000ms, 0109ms total)
T346C 000:126 JLINK_TIF_Select(JLINKARM_TIF_SWD)  returns 0x00 (0001ms, 0110ms total)
T346C 000:127 JLINK_SetSpeed(5000) (0000ms, 0110ms total)
T346C 000:127 JLINK_GetId() >0x10B TIF>Found SW-DP with ID 0x0BB11477 >0x0D TIF> >0x28 TIF> >0x0D TIF> >0x28 TIF> >0x0D TIF> >0x28 TIF> >0x0D TIF> >0x28 TIF> >0x0D TIF> >0x21 TIF> >0x0D TIF> >0x28 TIF> >0x0D TIF> >0x28 TIF> >0x0D TIF> >0x28 TIF> >0x0D TIF> >0x21 TIF> >0x0D TIF> >0x21 TIF> >0x0D TIF> >0x28 TIF> >0x0D TIF> >0x21 TIF> >0x0D TIF> >0x21 TIF> >0x0D TIF> >0x28 TIF> >0x0D TIF> >0x21 TIF> >0x0D TIF> >0x21 TIF> >0x0D TIF> >0x28 TIF> >0x0D TIF> >0x28 TIF> >0x0D TIF> >0x28 TIF> >0x0D TIF> >0x21 TIF>
 >0x0D TIF> >0x21 TIF> >0x0D TIF> >0x28 TIF> >0x0D TIF> >0x28 TIF> >0x0D TIF> >0x28 TIF> >0x0D TIF> >0x21 TIF> >0x0D TIF> >0x21 TIF> >0x0D TIF> >0x28 TIF> >0x0D TIF> >0x21 TIF> >0x0D TIF> >0x21 TIF> >0x0D TIF> >0x28 TIF> >0x0D TIF> >0x21 TIF> >0x0D TIF> >0x21 TIF> >0x0D TIF> >0x28 TIF> >0x0D TIF> >0x21 TIF> >0x0D TIF> >0x21 TIF> >0x0D TIF> >0x28 TIF> >0x0D TIF> >0x21 TIF> >0x0D TIF> >0x21 TIF> >0x0D TIF> >0x28 TIF> >0x0D TIF> >0x21 TIF> >0x0D TIF> >0x21 TIF> >0x10B TIF>Found SW-DP with ID 0x0BB11477
 >0x0D TIF> >0x28 TIF> >0x0D TIF> >0x28 TIF> >0x0D TIF> >0x28 TIF> >0x0D TIF> >0x28 TIF> >0x0D TIF> >0x21 TIF> >0x0D TIF> >0x28 TIF>Scanning APs, stopping at first AHB-AP found. >0x0D TIF> >0x28 TIF> >0x0D TIF> >0x21 TIF> >0x0D TIF> >0x21 TIF>AP[0] IDR: 0x04770021 (AHB-AP) >0x0D TIF> >0x28 TIF> >0x0D TIF> >0x21 TIF> >0x0D TIF> >0x21 TIF>AHB-AP ROM: 0xE00FF000 (Base addr. of first ROM table) >0x0D TIF> >0x28 TIF> >0x0D TIF> >0x28 TIF> >0x0D TIF> >0x28 TIF> >0x0D TIF> >0x21 TIF> >0x0D TIF> >0x21 TIF>
 >0x0D TIF> >0x28 TIF> >0x0D TIF> >0x21 TIF> >0x0D TIF> >0x21 TIF>CPUID reg: 0x410CC200. Implementer code: 0x41 (ARM)Found Cortex-M0 r0p0, Little endian. -- CPU_ReadMem(4 bytes @ 0xE000EDF0) -- CPU_WriteMem(4 bytes @ 0xE000EDF0) -- CPU_ReadMem(4 bytes @ 0xE0002000)FPUnit: 4 code (BP) slots and 0 literal slots -- CPU_ReadMem(4 bytes @ 0xE000EDFC) -- CPU_WriteMem(4 bytes @ 0xE000EDFC) -- CPU_ReadMem(4 bytes @ 0xE0001000) -- CPU_WriteMem(4 bytes @ 0xE0001000)CoreSight components:ROMTbl[0] @ E00FF000
 -- CPU_ReadMem(16 bytes @ 0xE00FF000) -- CPU_ReadMem(16 bytes @ 0xE000EFF0) -- CPU_ReadMem(16 bytes @ 0xE000EFE0)ROMTbl[0][0]: E000E000, CID: B105E00D, PID: 000BB008 SCS -- CPU_ReadMem(16 bytes @ 0xE0001FF0) -- CPU_ReadMem(16 bytes @ 0xE0001FE0)ROMTbl[0][1]: E0001000, CID: B105E00D, PID: 000BB00A DWT -- CPU_ReadMem(16 bytes @ 0xE0002FF0) -- CPU_ReadMem(16 bytes @ 0xE0002FE0)ROMTbl[0][2]: E0002000, CID: B105E00D, PID: 000BB00B FPB -- CPU is running -- CPU_WriteMem(4 bytes @ 0xE000EDF0) -- CPU is running
 -- CPU_WriteMem(4 bytes @ 0xE000EDFC) >0x35 TIF>Setting AIRCR.SYSRESETREQ -- CPU is running -- CPU_WriteMem(4 bytes @ 0xE000ED0C) >0x0D TIF> >0x28 TIF> -- CPU_ReadMem(4 bytes @ 0xE000ED0C) -- CPU_ReadMem(4 bytes @ 0xE000EDF0) -- CPU_ReadMem(4 bytes @ 0xE000EDF0) -- CPU_ReadMem(4 bytes @ 0xE000EDF0) -- CPU is running -- CPU_WriteMem(4 bytes @ 0xE000EDF0) -- CPU is running -- CPU_WriteMem(4 bytes @ 0xE000EDFC) -- CPU_ReadMem(4 bytes @ 0xE000EDF0) -- CPU_WriteMem(4 bytes @ 0xE0002000)
 -- CPU_ReadMem(4 bytes @ 0xE000EDFC) -- CPU_ReadMem(4 bytes @ 0xE0001000) -- CPU_WriteMem(4 bytes @ 0xE0001000) -- CPU_WriteMem(8192 bytes @ 0x20000000) >0x0D TIF> >0x21 TIF>  returns 0x0BB11477 (0153ms, 0263ms total)
T346C 000:280 JLINK_GetDLLVersion()  returns 61603 (0000ms, 0263ms total)
T346C 000:280 JLINK_CORE_GetFound()  returns 0x60000FF (0000ms, 0263ms total)
T346C 000:280 JLINK_GetDebugInfo(0x100 = JLINKARM_ROM_TABLE_ADDR_INDEX) -- Value=0xE00FF000  returns 0x00 (0000ms, 0263ms total)
T346C 000:281 JLINK_GetDebugInfo(0x100 = JLINKARM_ROM_TABLE_ADDR_INDEX) -- Value=0xE00FF000  returns 0x00 (0000ms, 0263ms total)
T346C 000:281 JLINK_GetDebugInfo(0x101 = JLINKARM_DEBUG_INFO_ETM_ADDR_INDEX) -- Value=0x00000000  returns 0x00 (0000ms, 0263ms total)
T346C 000:281 JLINK_ReadMemEx(0xE0041FF0, 0x0010 Bytes, ..., Flags = 0x02000004) -- CPU_ReadMem(16 bytes @ 0xE0041FF0) - Data: 00 00 00 00 00 00 00 00 00 00 00 00 00 00 00 00  returns 0x10 (0001ms, 0264ms total)
T346C 000:282 JLINK_GetDebugInfo(0x102 = JLINKARM_DEBUG_INFO_MTB_ADDR_INDEX) -- Value=0x00000000  returns 0x00 (0000ms, 0264ms total)
T346C 000:282 JLINK_GetDebugInfo(0x103 = JLINKARM_DEBUG_INFO_TPIU_ADDR_INDEX) -- Value=0x00000000  returns 0x00 (0000ms, 0264ms total)
T346C 000:282 JLINK_ReadMemEx(0xE0040FF0, 0x0010 Bytes, ..., Flags = 0x02000004) -- CPU_ReadMem(16 bytes @ 0xE0040FF0) - Data: 00 00 00 00 00 00 00 00 00 00 00 00 00 00 00 00  returns 0x10 (0000ms, 0264ms total)
T346C 000:282 JLINK_GetDebugInfo(0x104 = JLINKARM_DEBUG_INFO_ITM_ADDR_INDEX) -- Value=0xE0000000  returns 0x00 (0000ms, 0264ms total)
T346C 000:282 JLINK_GetDebugInfo(0x105 = JLINKARM_DEBUG_INFO_DWT_ADDR_INDEX) -- Value=0xE0001000  returns 0x00 (0000ms, 0264ms total)
T346C 000:282 JLINK_GetDebugInfo(0x106 = JLINKARM_DEBUG_INFO_FPB_ADDR_INDEX) -- Value=0xE0002000  returns 0x00 (0000ms, 0264ms total)
T346C 000:282 JLINK_GetDebugInfo(0x107 = JLINKARM_DEBUG_INFO_NVIC_ADDR_INDEX) -- Value=0xE000E000  returns 0x00 (0000ms, 0264ms total)
T346C 000:282 JLINK_GetDebugInfo(0x10C = JLINKARM_DEBUG_INFO_DBG_ADDR_INDEX) -- Value=0xE000EDF0  returns 0x00 (0000ms, 0264ms total)
T346C 000:282 JLINK_ReadMemU32(0xE000ED00, 0x0001 Items, ...) -- CPU_ReadMem(4 bytes @ 0xE000ED00) - Data: 00 C2 0C 41  returns 0x01 (0001ms, 0265ms total)
T346C 000:283 JLINK_GetDebugInfo(0x10F = JLINKARM_DEBUG_INFO_HAS_CORTEX_M_SECURITY_EXT_INDEX) -- Value=0x00000000  returns 0x00 (0000ms, 0265ms total)
T346C 000:283 JLINK_SetResetType(JLINKARM_CM3_RESET_TYPE_NORMAL)  returns JLINKARM_CM3_RESET_TYPE_NORMAL (0000ms, 0265ms total)
T346C 000:283 JLINK_Reset() -- CPU_ReadMem(4 bytes @ 0x20000000) -- CPU_WriteMem(4 bytes @ 0x20000000) -- CPU_WriteMem(4 bytes @ 0xE000EDF0) -- CPU_WriteMem(4 bytes @ 0xE000EDFC) >0x35 TIF>Setting AIRCR.SYSRESETREQ -- CPU_WriteMem(4 bytes @ 0xE000ED0C) >0x0D TIF> >0x28 TIF> -- CPU_ReadMem(4 bytes @ 0xE000ED0C) -- CPU_ReadMem(4 bytes @ 0xE000EDF0) -- CPU_ReadMem(4 bytes @ 0xE000EDF0) -- CPU_ReadMem(4 bytes @ 0xE000EDF0) -- CPU_WriteMem(4 bytes @ 0xE000EDF0) -- CPU_WriteMem(4 bytes @ 0xE000EDFC)
 -- CPU_ReadMem(4 bytes @ 0xE000EDF0) -- CPU_WriteMem(4 bytes @ 0xE0002000) -- CPU_ReadMem(4 bytes @ 0xE000EDFC) -- CPU_ReadMem(4 bytes @ 0xE0001000) -- CPU_WriteMem(4 bytes @ 0xE0001000) (0067ms, 0332ms total)
T346C 000:350 JLINK_Halt()  returns 0x00 (0000ms, 0332ms total)
T346C 000:350 JLINK_ReadMemU32(0xE000EDF0, 0x0001 Items, ...) -- CPU_ReadMem(4 bytes @ 0xE000EDF0) - Data: 03 00 03 00  returns 0x01 (0000ms, 0332ms total)
T346C 000:350 JLINK_WriteU32(0xE000EDF0, 0xA05F0003) -- CPU_WriteMem(4 bytes @ 0xE000EDF0)  returns 0x00 (0001ms, 0333ms total)
T346C 000:351 JLINK_WriteU32(0xE000EDFC, 0x01000000) -- CPU_WriteMem(4 bytes @ 0xE000EDFC)  returns 0x00 (0000ms, 0333ms total)
T346C 000:357 JLINK_GetHWStatus(...)  returns 0x00 (0000ms, 0333ms total)
T346C 000:362 JLINK_GetNumBPUnits(Type = 0xFFFFFF00)  returns 0x04 (0000ms, 0333ms total)
T346C 000:362 JLINK_GetNumBPUnits(Type = 0xF0)  returns 0x2000 (0000ms, 0333ms total)
T346C 000:362 JLINK_GetNumWPUnits()  returns 0x02 (0000ms, 0333ms total)
T346C 000:366 JLINK_GetSpeed()  returns 0xFA0 (0000ms, 0333ms total)
T346C 000:369 JLINK_ReadMemU32(0xE000E004, 0x0001 Items, ...) -- CPU_ReadMem(4 bytes @ 0xE000E004) - Data: 00 00 00 00  returns 0x01 (0000ms, 0333ms total)
T346C 000:369 JLINK_Halt()  returns 0x00 (0000ms, 0333ms total)
T346C 000:369 JLINK_IsHalted()  returns TRUE (0000ms, 0333ms total)
T346C 000:371 JLINK_WriteMem(0x20000000, 0x0170 Bytes, ...) - Data: 00 BE 0A E0 0D 78 2D 06 68 40 08 24 40 00 00 D3 ... -- CPU_WriteMem(368 bytes @ 0x20000000)  returns 0x170 (0003ms, 0336ms total)
T346C 000:374 JLINK_WriteReg(R0, 0x08000000)  returns 0x00 (0000ms, 0336ms total)
T346C 000:374 JLINK_WriteReg(R1, 0x02DC6C00)  returns 0x00 (0000ms, 0336ms total)
T346C 000:374 JLINK_WriteReg(R2, 0x00000001)  returns 0x00 (0000ms, 0336ms total)
T346C 000:374 JLINK_WriteReg(R3, 0x00000000)  returns 0x00 (0000ms, 0336ms total)
T346C 000:374 JLINK_WriteReg(R4, 0x00000000)  returns 0x00 (0000ms, 0336ms total)
T346C 000:374 JLINK_WriteReg(R5, 0x00000000)  returns 0x00 (0000ms, 0336ms total)
T346C 000:374 JLINK_WriteReg(R6, 0x00000000)  returns 0x00 (0000ms, 0336ms total)
T346C 000:374 JLINK_WriteReg(R7, 0x00000000)  returns 0x00 (0000ms, 0336ms total)
T346C 000:374 JLINK_WriteReg(R8, 0x00000000)  returns 0x00 (0000ms, 0336ms total)
T346C 000:374 JLINK_WriteReg(R9, 0x2000016C)  returns 0x00 (0000ms, 0336ms total)
T346C 000:374 JLINK_WriteReg(R10, 0x00000000)  returns 0x00 (0000ms, 0336ms total)
T346C 000:374 JLINK_WriteReg(R11, 0x00000000)  returns 0x00 (0000ms, 0336ms total)
T346C 000:374 JLINK_WriteReg(R12, 0x00000000)  returns 0x00 (0000ms, 0336ms total)
T346C 000:374 JLINK_WriteReg(R13 (SP), 0x20001000)  returns 0x00 (0000ms, 0336ms total)
T346C 000:374 JLINK_WriteReg(R14, 0x20000001)  returns 0x00 (0000ms, 0336ms total)
T346C 000:374 JLINK_WriteReg(R15 (PC), 0x20000038)  returns 0x00 (0000ms, 0336ms total)
T346C 000:374 JLINK_WriteReg(XPSR, 0x01000000)  returns 0x00 (0000ms, 0336ms total)
T346C 000:374 JLINK_WriteReg(MSP, 0x20001000)  returns 0x00 (0000ms, 0336ms total)
T346C 000:374 JLINK_WriteReg(PSP, 0x20001000)  returns 0x00 (0000ms, 0336ms total)
T346C 000:374 JLINK_WriteReg(CFBP, 0x00000000)  returns 0x00 (0000ms, 0336ms total)
T346C 000:374 JLINK_SetBPEx(Addr = 0x20000000, Type = 0xFFFFFFF2) -- CPU_ReadMem(2 bytes @ 0x20000000)  returns 0x00000001 (0000ms, 0336ms total)
T346C 000:374 JLINK_Go() -- CPU_WriteMem(2 bytes @ 0x20000000) -- CPU_ReadMem(4 bytes @ 0xE0001000) -- CPU_WriteMem(4 bytes @ 0xE0001000) -- CPU_WriteMem(4 bytes @ 0xE0002008) -- CPU_WriteMem(4 bytes @ 0xE000200C) -- CPU_WriteMem(4 bytes @ 0xE0002010) -- CPU_WriteMem(4 bytes @ 0xE0002014) -- CPU_WriteMem(4 bytes @ 0xE0001004) (0004ms, 0340ms total)
T346C 000:378 JLINK_IsHalted() -- CPU_ReadMem(2 bytes @ 0x20000000)  returns TRUE (0002ms, 0342ms total)
T346C 000:380 JLINK_ReadReg(R15 (PC))  returns 0x20000000 (0000ms, 0340ms total)
T346C 000:380 JLINK_ClrBPEx(BPHandle = 0x00000001)  returns 0x00 (0000ms, 0340ms total)
T346C 000:380 JLINK_ReadReg(R0)  returns 0x00000000 (0000ms, 0340ms total)
T346C 000:381 JLINK_WriteReg(R0, 0x08000000)  returns 0x00 (0000ms, 0340ms total)
T346C 000:381 JLINK_WriteReg(R1, 0x00000400)  returns 0x00 (0000ms, 0340ms total)
T346C 000:381 JLINK_WriteReg(R2, 0x000000FF)  returns 0x00 (0000ms, 0340ms total)
T346C 000:381 JLINK_WriteReg(R3, 0x00000000)  returns 0x00 (0000ms, 0340ms total)
T346C 000:381 JLINK_WriteReg(R4, 0x00000000)  returns 0x00 (0000ms, 0340ms total)
T346C 000:381 JLINK_WriteReg(R5, 0x00000000)  returns 0x00 (0000ms, 0340ms total)
T346C 000:381 JLINK_WriteReg(R6, 0x00000000)  returns 0x00 (0000ms, 0340ms total)
T346C 000:381 JLINK_WriteReg(R7, 0x00000000)  returns 0x00 (0000ms, 0340ms total)
T346C 000:381 JLINK_WriteReg(R8, 0x00000000)  returns 0x00 (0000ms, 0340ms total)
T346C 000:381 JLINK_WriteReg(R9, 0x2000016C)  returns 0x00 (0000ms, 0340ms total)
T346C 000:381 JLINK_WriteReg(R10, 0x00000000)  returns 0x00 (0000ms, 0340ms total)
T346C 000:381 JLINK_WriteReg(R11, 0x00000000)  returns 0x00 (0000ms, 0340ms total)
T346C 000:381 JLINK_WriteReg(R12, 0x00000000)  returns 0x00 (0000ms, 0340ms total)
T346C 000:381 JLINK_WriteReg(R13 (SP), 0x20001000)  returns 0x00 (0000ms, 0340ms total)
T346C 000:381 JLINK_WriteReg(R14, 0x20000001)  returns 0x00 (0000ms, 0340ms total)
T346C 000:381 JLINK_WriteReg(R15 (PC), 0x20000020)  returns 0x00 (0000ms, 0340ms total)
T346C 000:381 JLINK_WriteReg(XPSR, 0x01000000)  returns 0x00 (0000ms, 0340ms total)
T346C 000:381 JLINK_WriteReg(MSP, 0x20001000)  returns 0x00 (0000ms, 0340ms total)
T346C 000:381 JLINK_WriteReg(PSP, 0x20001000)  returns 0x00 (0000ms, 0340ms total)
T346C 000:381 JLINK_WriteReg(CFBP, 0x00000000)  returns 0x00 (0000ms, 0340ms total)
T346C 000:381 JLINK_SetBPEx(Addr = 0x20000000, Type = 0xFFFFFFF2)  returns 0x00000002 (0000ms, 0340ms total)
T346C 000:381 JLINK_Go() -- CPU_ReadMem(4 bytes @ 0xE0001000) -- CPU_WriteMem(4 bytes @ 0xE0001000) (0002ms, 0342ms total)
T346C 000:383 JLINK_IsHalted()  returns FALSE (0000ms, 0342ms total)
T346C 000:422 JLINK_IsHalted() -- CPU_ReadMem(2 bytes @ 0x20000000)  returns TRUE (0002ms, 0344ms total)
T346C 000:424 JLINK_ReadReg(R15 (PC))  returns 0x20000000 (0000ms, 0342ms total)
T346C 000:424 JLINK_ClrBPEx(BPHandle = 0x00000002)  returns 0x00 (0000ms, 0342ms total)
T346C 000:424 JLINK_ReadReg(R0)  returns 0x00000000 (0000ms, 0342ms total)
T346C 000:424 JLINK_WriteReg(R0, 0x08000400)  returns 0x00 (0000ms, 0342ms total)
T346C 000:424 JLINK_WriteReg(R1, 0x00000400)  returns 0x00 (0000ms, 0342ms total)
T346C 000:424 JLINK_WriteReg(R2, 0x000000FF)  returns 0x00 (0000ms, 0342ms total)
T346C 000:424 JLINK_WriteReg(R3, 0x00000000)  returns 0x00 (0000ms, 0342ms total)
T346C 000:424 JLINK_WriteReg(R4, 0x00000000)  returns 0x00 (0000ms, 0342ms total)
T346C 000:424 JLINK_WriteReg(R5, 0x00000000)  returns 0x00 (0000ms, 0342ms total)
T346C 000:424 JLINK_WriteReg(R6, 0x00000000)  returns 0x00 (0000ms, 0342ms total)
T346C 000:424 JLINK_WriteReg(R7, 0x00000000)  returns 0x00 (0000ms, 0342ms total)
T346C 000:424 JLINK_WriteReg(R8, 0x00000000)  returns 0x00 (0000ms, 0342ms total)
T346C 000:424 JLINK_WriteReg(R9, 0x2000016C)  returns 0x00 (0000ms, 0342ms total)
T346C 000:424 JLINK_WriteReg(R10, 0x00000000)  returns 0x00 (0000ms, 0342ms total)
T346C 000:424 JLINK_WriteReg(R11, 0x00000000)  returns 0x00 (0000ms, 0342ms total)
T346C 000:424 JLINK_WriteReg(R12, 0x00000000)  returns 0x00 (0000ms, 0342ms total)
T346C 000:424 JLINK_WriteReg(R13 (SP), 0x20001000)  returns 0x00 (0000ms, 0342ms total)
T346C 000:424 JLINK_WriteReg(R14, 0x20000001)  returns 0x00 (0000ms, 0342ms total)
T346C 000:424 JLINK_WriteReg(R15 (PC), 0x20000020)  returns 0x00 (0000ms, 0342ms total)
T346C 000:424 JLINK_WriteReg(XPSR, 0x01000000)  returns 0x00 (0000ms, 0342ms total)
T346C 000:424 JLINK_WriteReg(MSP, 0x20001000)  returns 0x00 (0000ms, 0342ms total)
T346C 000:424 JLINK_WriteReg(PSP, 0x20001000)  returns 0x00 (0000ms, 0342ms total)
T346C 000:424 JLINK_WriteReg(CFBP, 0x00000000)  returns 0x00 (0000ms, 0342ms total)
T346C 000:424 JLINK_SetBPEx(Addr = 0x20000000, Type = 0xFFFFFFF2)  returns 0x00000003 (0000ms, 0342ms total)
T346C 000:425 JLINK_Go() -- CPU_ReadMem(4 bytes @ 0xE0001000) -- CPU_WriteMem(4 bytes @ 0xE0001000) (0001ms, 0344ms total)
T346C 000:426 JLINK_IsHalted()  returns FALSE (0000ms, 0344ms total)
T346C 000:428 JLINK_IsHalted() -- CPU_ReadMem(2 bytes @ 0x20000000)  returns TRUE (0002ms, 0346ms total)
T346C 000:430 JLINK_ReadReg(R15 (PC))  returns 0x20000000 (0000ms, 0344ms total)
T346C 000:430 JLINK_ClrBPEx(BPHandle = 0x00000003)  returns 0x00 (0000ms, 0344ms total)
T346C 000:430 JLINK_ReadReg(R0)  returns 0x00000000 (0000ms, 0344ms total)
T346C 000:430 JLINK_WriteReg(R0, 0x08000800)  returns 0x00 (0000ms, 0344ms total)
T346C 000:430 JLINK_WriteReg(R1, 0x00000400)  returns 0x00 (0000ms, 0344ms total)
T346C 000:430 JLINK_WriteReg(R2, 0x000000FF)  returns 0x00 (0000ms, 0344ms total)
T346C 000:430 JLINK_WriteReg(R3, 0x00000000)  returns 0x00 (0000ms, 0344ms total)
T346C 000:430 JLINK_WriteReg(R4, 0x00000000)  returns 0x00 (0000ms, 0344ms total)
T346C 000:430 JLINK_WriteReg(R5, 0x00000000)  returns 0x00 (0000ms, 0344ms total)
T346C 000:430 JLINK_WriteReg(R6, 0x00000000)  returns 0x00 (0000ms, 0344ms total)
T346C 000:430 JLINK_WriteReg(R7, 0x00000000)  returns 0x00 (0000ms, 0344ms total)
T346C 000:430 JLINK_WriteReg(R8, 0x00000000)  returns 0x00 (0000ms, 0344ms total)
T346C 000:430 JLINK_WriteReg(R9, 0x2000016C)  returns 0x00 (0000ms, 0344ms total)
T346C 000:430 JLINK_WriteReg(R10, 0x00000000)  returns 0x00 (0000ms, 0344ms total)
T346C 000:430 JLINK_WriteReg(R11, 0x00000000)  returns 0x00 (0000ms, 0344ms total)
T346C 000:430 JLINK_WriteReg(R12, 0x00000000)  returns 0x00 (0000ms, 0344ms total)
T346C 000:430 JLINK_WriteReg(R13 (SP), 0x20001000)  returns 0x00 (0000ms, 0344ms total)
T346C 000:430 JLINK_WriteReg(R14, 0x20000001)  returns 0x00 (0000ms, 0344ms total)
T346C 000:430 JLINK_WriteReg(R15 (PC), 0x20000020)  returns 0x00 (0000ms, 0344ms total)
T346C 000:430 JLINK_WriteReg(XPSR, 0x01000000)  returns 0x00 (0000ms, 0344ms total)
T346C 000:430 JLINK_WriteReg(MSP, 0x20001000)  returns 0x00 (0000ms, 0344ms total)
T346C 000:430 JLINK_WriteReg(PSP, 0x20001000)  returns 0x00 (0000ms, 0344ms total)
T346C 000:430 JLINK_WriteReg(CFBP, 0x00000000)  returns 0x00 (0000ms, 0344ms total)
T346C 000:430 JLINK_SetBPEx(Addr = 0x20000000, Type = 0xFFFFFFF2)  returns 0x00000004 (0000ms, 0344ms total)
T346C 000:430 JLINK_Go() -- CPU_ReadMem(4 bytes @ 0xE0001000) -- CPU_WriteMem(4 bytes @ 0xE0001000) (0002ms, 0346ms total)
T346C 000:432 JLINK_IsHalted()  returns FALSE (0000ms, 0346ms total)
T346C 000:435 JLINK_IsHalted() -- CPU_ReadMem(2 bytes @ 0x20000000)  returns TRUE (0002ms, 0348ms total)
T346C 000:437 JLINK_ReadReg(R15 (PC))  returns 0x20000000 (0000ms, 0346ms total)
T346C 000:437 JLINK_ClrBPEx(BPHandle = 0x00000004)  returns 0x00 (0000ms, 0346ms total)
T346C 000:437 JLINK_ReadReg(R0)  returns 0x00000000 (0000ms, 0346ms total)
T346C 000:437 JLINK_WriteReg(R0, 0x08000C00)  returns 0x00 (0000ms, 0346ms total)
T346C 000:437 JLINK_WriteReg(R1, 0x00000400)  returns 0x00 (0000ms, 0346ms total)
T346C 000:437 JLINK_WriteReg(R2, 0x000000FF)  returns 0x00 (0000ms, 0346ms total)
T346C 000:437 JLINK_WriteReg(R3, 0x00000000)  returns 0x00 (0000ms, 0346ms total)
T346C 000:437 JLINK_WriteReg(R4, 0x00000000)  returns 0x00 (0000ms, 0346ms total)
T346C 000:437 JLINK_WriteReg(R5, 0x00000000)  returns 0x00 (0000ms, 0346ms total)
T346C 000:437 JLINK_WriteReg(R6, 0x00000000)  returns 0x00 (0000ms, 0346ms total)
T346C 000:437 JLINK_WriteReg(R7, 0x00000000)  returns 0x00 (0000ms, 0346ms total)
T346C 000:437 JLINK_WriteReg(R8, 0x00000000)  returns 0x00 (0000ms, 0346ms total)
T346C 000:437 JLINK_WriteReg(R9, 0x2000016C)  returns 0x00 (0000ms, 0346ms total)
T346C 000:437 JLINK_WriteReg(R10, 0x00000000)  returns 0x00 (0000ms, 0346ms total)
T346C 000:437 JLINK_WriteReg(R11, 0x00000000)  returns 0x00 (0000ms, 0346ms total)
T346C 000:437 JLINK_WriteReg(R12, 0x00000000)  returns 0x00 (0000ms, 0346ms total)
T346C 000:437 JLINK_WriteReg(R13 (SP), 0x20001000)  returns 0x00 (0000ms, 0346ms total)
T346C 000:437 JLINK_WriteReg(R14, 0x20000001)  returns 0x00 (0000ms, 0346ms total)
T346C 000:437 JLINK_WriteReg(R15 (PC), 0x20000020)  returns 0x00 (0000ms, 0346ms total)
T346C 000:437 JLINK_WriteReg(XPSR, 0x01000000)  returns 0x00 (0000ms, 0346ms total)
T346C 000:437 JLINK_WriteReg(MSP, 0x20001000)  returns 0x00 (0000ms, 0346ms total)
T346C 000:437 JLINK_WriteReg(PSP, 0x20001000)  returns 0x00 (0000ms, 0346ms total)
T346C 000:437 JLINK_WriteReg(CFBP, 0x00000000)  returns 0x00 (0000ms, 0346ms total)
T346C 000:437 JLINK_SetBPEx(Addr = 0x20000000, Type = 0xFFFFFFF2)  returns 0x00000005 (0000ms, 0346ms total)
T346C 000:437 JLINK_Go() -- CPU_ReadMem(4 bytes @ 0xE0001000) -- CPU_WriteMem(4 bytes @ 0xE0001000) (0002ms, 0348ms total)
T346C 000:439 JLINK_IsHalted()  returns FALSE (0000ms, 0348ms total)
T346C 000:441 JLINK_IsHalted() -- CPU_ReadMem(2 bytes @ 0x20000000)  returns TRUE (0002ms, 0350ms total)
T346C 000:443 JLINK_ReadReg(R15 (PC))  returns 0x20000000 (0000ms, 0348ms total)
T346C 000:443 JLINK_ClrBPEx(BPHandle = 0x00000005)  returns 0x00 (0000ms, 0348ms total)
T346C 000:443 JLINK_ReadReg(R0)  returns 0x00000000 (0000ms, 0348ms total)
T346C 000:443 JLINK_WriteReg(R0, 0x08001000)  returns 0x00 (0000ms, 0348ms total)
T346C 000:443 JLINK_WriteReg(R1, 0x00000400)  returns 0x00 (0000ms, 0348ms total)
T346C 000:443 JLINK_WriteReg(R2, 0x000000FF)  returns 0x00 (0000ms, 0348ms total)
T346C 000:443 JLINK_WriteReg(R3, 0x00000000)  returns 0x00 (0000ms, 0348ms total)
T346C 000:443 JLINK_WriteReg(R4, 0x00000000)  returns 0x00 (0000ms, 0348ms total)
T346C 000:443 JLINK_WriteReg(R5, 0x00000000)  returns 0x00 (0000ms, 0348ms total)
T346C 000:443 JLINK_WriteReg(R6, 0x00000000)  returns 0x00 (0000ms, 0348ms total)
T346C 000:443 JLINK_WriteReg(R7, 0x00000000)  returns 0x00 (0000ms, 0348ms total)
T346C 000:443 JLINK_WriteReg(R8, 0x00000000)  returns 0x00 (0000ms, 0348ms total)
T346C 000:443 JLINK_WriteReg(R9, 0x2000016C)  returns 0x00 (0000ms, 0348ms total)
T346C 000:443 JLINK_WriteReg(R10, 0x00000000)  returns 0x00 (0000ms, 0348ms total)
T346C 000:443 JLINK_WriteReg(R11, 0x00000000)  returns 0x00 (0000ms, 0348ms total)
T346C 000:443 JLINK_WriteReg(R12, 0x00000000)  returns 0x00 (0000ms, 0348ms total)
T346C 000:443 JLINK_WriteReg(R13 (SP), 0x20001000)  returns 0x00 (0000ms, 0348ms total)
T346C 000:443 JLINK_WriteReg(R14, 0x20000001)  returns 0x00 (0000ms, 0348ms total)
T346C 000:443 JLINK_WriteReg(R15 (PC), 0x20000020)  returns 0x00 (0000ms, 0348ms total)
T346C 000:443 JLINK_WriteReg(XPSR, 0x01000000)  returns 0x00 (0000ms, 0348ms total)
T346C 000:443 JLINK_WriteReg(MSP, 0x20001000)  returns 0x00 (0000ms, 0348ms total)
T346C 000:443 JLINK_WriteReg(PSP, 0x20001000)  returns 0x00 (0000ms, 0348ms total)
T346C 000:443 JLINK_WriteReg(CFBP, 0x00000000)  returns 0x00 (0000ms, 0348ms total)
T346C 000:443 JLINK_SetBPEx(Addr = 0x20000000, Type = 0xFFFFFFF2)  returns 0x00000006 (0000ms, 0348ms total)
T346C 000:443 JLINK_Go() -- CPU_ReadMem(4 bytes @ 0xE0001000) -- CPU_WriteMem(4 bytes @ 0xE0001000) (0002ms, 0350ms total)
T346C 000:445 JLINK_IsHalted()  returns FALSE (0000ms, 0350ms total)
T346C 000:448 JLINK_IsHalted() -- CPU_ReadMem(2 bytes @ 0x20000000)  returns TRUE (0002ms, 0352ms total)
T346C 000:450 JLINK_ReadReg(R15 (PC))  returns 0x20000000 (0000ms, 0350ms total)
T346C 000:450 JLINK_ClrBPEx(BPHandle = 0x00000006)  returns 0x00 (0000ms, 0350ms total)
T346C 000:450 JLINK_ReadReg(R0)  returns 0x00000000 (0000ms, 0350ms total)
T346C 000:450 JLINK_WriteReg(R0, 0x08001400)  returns 0x00 (0000ms, 0350ms total)
T346C 000:450 JLINK_WriteReg(R1, 0x00000400)  returns 0x00 (0000ms, 0350ms total)
T346C 000:450 JLINK_WriteReg(R2, 0x000000FF)  returns 0x00 (0000ms, 0350ms total)
T346C 000:450 JLINK_WriteReg(R3, 0x00000000)  returns 0x00 (0000ms, 0350ms total)
T346C 000:450 JLINK_WriteReg(R4, 0x00000000)  returns 0x00 (0000ms, 0350ms total)
T346C 000:450 JLINK_WriteReg(R5, 0x00000000)  returns 0x00 (0000ms, 0350ms total)
T346C 000:450 JLINK_WriteReg(R6, 0x00000000)  returns 0x00 (0000ms, 0350ms total)
T346C 000:450 JLINK_WriteReg(R7, 0x00000000)  returns 0x00 (0000ms, 0350ms total)
T346C 000:450 JLINK_WriteReg(R8, 0x00000000)  returns 0x00 (0000ms, 0350ms total)
T346C 000:450 JLINK_WriteReg(R9, 0x2000016C)  returns 0x00 (0000ms, 0350ms total)
T346C 000:450 JLINK_WriteReg(R10, 0x00000000)  returns 0x00 (0000ms, 0350ms total)
T346C 000:450 JLINK_WriteReg(R11, 0x00000000)  returns 0x00 (0000ms, 0350ms total)
T346C 000:450 JLINK_WriteReg(R12, 0x00000000)  returns 0x00 (0000ms, 0350ms total)
T346C 000:450 JLINK_WriteReg(R13 (SP), 0x20001000)  returns 0x00 (0000ms, 0350ms total)
T346C 000:450 JLINK_WriteReg(R14, 0x20000001)  returns 0x00 (0000ms, 0350ms total)
T346C 000:450 JLINK_WriteReg(R15 (PC), 0x20000020)  returns 0x00 (0000ms, 0350ms total)
T346C 000:450 JLINK_WriteReg(XPSR, 0x01000000)  returns 0x00 (0000ms, 0350ms total)
T346C 000:450 JLINK_WriteReg(MSP, 0x20001000)  returns 0x00 (0000ms, 0350ms total)
T346C 000:450 JLINK_WriteReg(PSP, 0x20001000)  returns 0x00 (0000ms, 0350ms total)
T346C 000:450 JLINK_WriteReg(CFBP, 0x00000000)  returns 0x00 (0000ms, 0350ms total)
T346C 000:450 JLINK_SetBPEx(Addr = 0x20000000, Type = 0xFFFFFFF2)  returns 0x00000007 (0000ms, 0350ms total)
T346C 000:450 JLINK_Go() -- CPU_ReadMem(4 bytes @ 0xE0001000) -- CPU_WriteMem(4 bytes @ 0xE0001000) (0002ms, 0352ms total)
T346C 000:452 JLINK_IsHalted()  returns FALSE (0000ms, 0352ms total)
T346C 000:455 JLINK_IsHalted() -- CPU_ReadMem(2 bytes @ 0x20000000)  returns TRUE (0002ms, 0354ms total)
T346C 000:457 JLINK_ReadReg(R15 (PC))  returns 0x20000000 (0000ms, 0352ms total)
T346C 000:457 JLINK_ClrBPEx(BPHandle = 0x00000007)  returns 0x00 (0000ms, 0352ms total)
T346C 000:457 JLINK_ReadReg(R0)  returns 0x00000000 (0000ms, 0352ms total)
T346C 000:457 JLINK_WriteReg(R0, 0x08001800)  returns 0x00 (0000ms, 0352ms total)
T346C 000:457 JLINK_WriteReg(R1, 0x00000400)  returns 0x00 (0000ms, 0352ms total)
T346C 000:457 JLINK_WriteReg(R2, 0x000000FF)  returns 0x00 (0000ms, 0352ms total)
T346C 000:457 JLINK_WriteReg(R3, 0x00000000)  returns 0x00 (0000ms, 0352ms total)
T346C 000:457 JLINK_WriteReg(R4, 0x00000000)  returns 0x00 (0000ms, 0352ms total)
T346C 000:457 JLINK_WriteReg(R5, 0x00000000)  returns 0x00 (0000ms, 0352ms total)
T346C 000:457 JLINK_WriteReg(R6, 0x00000000)  returns 0x00 (0000ms, 0352ms total)
T346C 000:457 JLINK_WriteReg(R7, 0x00000000)  returns 0x00 (0000ms, 0352ms total)
T346C 000:457 JLINK_WriteReg(R8, 0x00000000)  returns 0x00 (0000ms, 0352ms total)
T346C 000:457 JLINK_WriteReg(R9, 0x2000016C)  returns 0x00 (0000ms, 0352ms total)
T346C 000:457 JLINK_WriteReg(R10, 0x00000000)  returns 0x00 (0000ms, 0352ms total)
T346C 000:457 JLINK_WriteReg(R11, 0x00000000)  returns 0x00 (0000ms, 0352ms total)
T346C 000:457 JLINK_WriteReg(R12, 0x00000000)  returns 0x00 (0000ms, 0352ms total)
T346C 000:457 JLINK_WriteReg(R13 (SP), 0x20001000)  returns 0x00 (0000ms, 0352ms total)
T346C 000:458 JLINK_WriteReg(R14, 0x20000001)  returns 0x00 (0000ms, 0352ms total)
T346C 000:458 JLINK_WriteReg(R15 (PC), 0x20000020)  returns 0x00 (0000ms, 0352ms total)
T346C 000:458 JLINK_WriteReg(XPSR, 0x01000000)  returns 0x00 (0000ms, 0352ms total)
T346C 000:458 JLINK_WriteReg(MSP, 0x20001000)  returns 0x00 (0000ms, 0352ms total)
T346C 000:458 JLINK_WriteReg(PSP, 0x20001000)  returns 0x00 (0000ms, 0352ms total)
T346C 000:458 JLINK_WriteReg(CFBP, 0x00000000)  returns 0x00 (0000ms, 0352ms total)
T346C 000:458 JLINK_SetBPEx(Addr = 0x20000000, Type = 0xFFFFFFF2)  returns 0x00000008 (0000ms, 0352ms total)
T346C 000:458 JLINK_Go() -- CPU_ReadMem(4 bytes @ 0xE0001000) -- CPU_WriteMem(4 bytes @ 0xE0001000) (0001ms, 0353ms total)
T346C 000:459 JLINK_IsHalted()  returns FALSE (0001ms, 0354ms total)
T346C 000:462 JLINK_IsHalted() -- CPU_ReadMem(2 bytes @ 0x20000000)  returns TRUE (0002ms, 0355ms total)
T346C 000:464 JLINK_ReadReg(R15 (PC))  returns 0x20000000 (0000ms, 0353ms total)
T346C 000:464 JLINK_ClrBPEx(BPHandle = 0x00000008)  returns 0x00 (0000ms, 0353ms total)
T346C 000:464 JLINK_ReadReg(R0)  returns 0x00000000 (0000ms, 0353ms total)
T346C 000:464 JLINK_WriteReg(R0, 0x08001C00)  returns 0x00 (0000ms, 0353ms total)
T346C 000:464 JLINK_WriteReg(R1, 0x00000400)  returns 0x00 (0000ms, 0353ms total)
T346C 000:464 JLINK_WriteReg(R2, 0x000000FF)  returns 0x00 (0000ms, 0353ms total)
T346C 000:464 JLINK_WriteReg(R3, 0x00000000)  returns 0x00 (0000ms, 0353ms total)
T346C 000:464 JLINK_WriteReg(R4, 0x00000000)  returns 0x00 (0000ms, 0353ms total)
T346C 000:464 JLINK_WriteReg(R5, 0x00000000)  returns 0x00 (0000ms, 0353ms total)
T346C 000:464 JLINK_WriteReg(R6, 0x00000000)  returns 0x00 (0000ms, 0353ms total)
T346C 000:464 JLINK_WriteReg(R7, 0x00000000)  returns 0x00 (0000ms, 0353ms total)
T346C 000:464 JLINK_WriteReg(R8, 0x00000000)  returns 0x00 (0000ms, 0353ms total)
T346C 000:464 JLINK_WriteReg(R9, 0x2000016C)  returns 0x00 (0000ms, 0353ms total)
T346C 000:464 JLINK_WriteReg(R10, 0x00000000)  returns 0x00 (0000ms, 0353ms total)
T346C 000:464 JLINK_WriteReg(R11, 0x00000000)  returns 0x00 (0000ms, 0353ms total)
T346C 000:464 JLINK_WriteReg(R12, 0x00000000)  returns 0x00 (0000ms, 0353ms total)
T346C 000:464 JLINK_WriteReg(R13 (SP), 0x20001000)  returns 0x00 (0000ms, 0353ms total)
T346C 000:464 JLINK_WriteReg(R14, 0x20000001)  returns 0x00 (0000ms, 0353ms total)
T346C 000:464 JLINK_WriteReg(R15 (PC), 0x20000020)  returns 0x00 (0000ms, 0353ms total)
T346C 000:464 JLINK_WriteReg(XPSR, 0x01000000)  returns 0x00 (0001ms, 0354ms total)
T346C 000:465 JLINK_WriteReg(MSP, 0x20001000)  returns 0x00 (0000ms, 0354ms total)
T346C 000:465 JLINK_WriteReg(PSP, 0x20001000)  returns 0x00 (0000ms, 0354ms total)
T346C 000:465 JLINK_WriteReg(CFBP, 0x00000000)  returns 0x00 (0000ms, 0354ms total)
T346C 000:465 JLINK_SetBPEx(Addr = 0x20000000, Type = 0xFFFFFFF2)  returns 0x00000009 (0000ms, 0354ms total)
T346C 000:465 JLINK_Go() -- CPU_ReadMem(4 bytes @ 0xE0001000) -- CPU_WriteMem(4 bytes @ 0xE0001000) (0001ms, 0355ms total)
T346C 000:466 JLINK_IsHalted()  returns FALSE (0001ms, 0356ms total)
T346C 000:469 JLINK_IsHalted() -- CPU_ReadMem(2 bytes @ 0x20000000)  returns TRUE (0002ms, 0357ms total)
T346C 000:471 JLINK_ReadReg(R15 (PC))  returns 0x20000000 (0000ms, 0355ms total)
T346C 000:471 JLINK_ClrBPEx(BPHandle = 0x00000009)  returns 0x00 (0000ms, 0355ms total)
T346C 000:471 JLINK_ReadReg(R0)  returns 0x00000000 (0000ms, 0355ms total)
T346C 000:471 JLINK_WriteReg(R0, 0x08002000)  returns 0x00 (0000ms, 0355ms total)
T346C 000:471 JLINK_WriteReg(R1, 0x00000400)  returns 0x00 (0000ms, 0355ms total)
T346C 000:471 JLINK_WriteReg(R2, 0x000000FF)  returns 0x00 (0000ms, 0355ms total)
T346C 000:471 JLINK_WriteReg(R3, 0x00000000)  returns 0x00 (0000ms, 0355ms total)
T346C 000:471 JLINK_WriteReg(R4, 0x00000000)  returns 0x00 (0000ms, 0355ms total)
T346C 000:471 JLINK_WriteReg(R5, 0x00000000)  returns 0x00 (0000ms, 0355ms total)
T346C 000:471 JLINK_WriteReg(R6, 0x00000000)  returns 0x00 (0000ms, 0355ms total)
T346C 000:471 JLINK_WriteReg(R7, 0x00000000)  returns 0x00 (0000ms, 0355ms total)
T346C 000:471 JLINK_WriteReg(R8, 0x00000000)  returns 0x00 (0000ms, 0355ms total)
T346C 000:472 JLINK_WriteReg(R9, 0x2000016C)  returns 0x00 (0000ms, 0355ms total)
T346C 000:472 JLINK_WriteReg(R10, 0x00000000)  returns 0x00 (0000ms, 0355ms total)
T346C 000:472 JLINK_WriteReg(R11, 0x00000000)  returns 0x00 (0000ms, 0355ms total)
T346C 000:472 JLINK_WriteReg(R12, 0x00000000)  returns 0x00 (0000ms, 0355ms total)
T346C 000:472 JLINK_WriteReg(R13 (SP), 0x20001000)  returns 0x00 (0000ms, 0355ms total)
T346C 000:472 JLINK_WriteReg(R14, 0x20000001)  returns 0x00 (0000ms, 0355ms total)
T346C 000:472 JLINK_WriteReg(R15 (PC), 0x20000020)  returns 0x00 (0000ms, 0355ms total)
T346C 000:472 JLINK_WriteReg(XPSR, 0x01000000)  returns 0x00 (0000ms, 0355ms total)
T346C 000:472 JLINK_WriteReg(MSP, 0x20001000)  returns 0x00 (0000ms, 0355ms total)
T346C 000:472 JLINK_WriteReg(PSP, 0x20001000)  returns 0x00 (0000ms, 0355ms total)
T346C 000:472 JLINK_WriteReg(CFBP, 0x00000000)  returns 0x00 (0000ms, 0355ms total)
T346C 000:472 JLINK_SetBPEx(Addr = 0x20000000, Type = 0xFFFFFFF2)  returns 0x0000000A (0000ms, 0355ms total)
T346C 000:472 JLINK_Go() -- CPU_ReadMem(4 bytes @ 0xE0001000) -- CPU_WriteMem(4 bytes @ 0xE0001000) (0001ms, 0356ms total)
T346C 000:473 JLINK_IsHalted()  returns FALSE (0001ms, 0357ms total)
T346C 000:476 JLINK_IsHalted() -- CPU_ReadMem(2 bytes @ 0x20000000)  returns TRUE (0002ms, 0358ms total)
T346C 000:478 JLINK_ReadReg(R15 (PC))  returns 0x20000000 (0000ms, 0356ms total)
T346C 000:478 JLINK_ClrBPEx(BPHandle = 0x0000000A)  returns 0x00 (0000ms, 0356ms total)
T346C 000:478 JLINK_ReadReg(R0)  returns 0x00000000 (0000ms, 0356ms total)
T346C 000:478 JLINK_WriteReg(R0, 0x08002400)  returns 0x00 (0000ms, 0356ms total)
T346C 000:478 JLINK_WriteReg(R1, 0x00000400)  returns 0x00 (0000ms, 0356ms total)
T346C 000:478 JLINK_WriteReg(R2, 0x000000FF)  returns 0x00 (0000ms, 0356ms total)
T346C 000:478 JLINK_WriteReg(R3, 0x00000000)  returns 0x00 (0000ms, 0356ms total)
T346C 000:478 JLINK_WriteReg(R4, 0x00000000)  returns 0x00 (0000ms, 0356ms total)
T346C 000:478 JLINK_WriteReg(R5, 0x00000000)  returns 0x00 (0000ms, 0356ms total)
T346C 000:478 JLINK_WriteReg(R6, 0x00000000)  returns 0x00 (0000ms, 0356ms total)
T346C 000:478 JLINK_WriteReg(R7, 0x00000000)  returns 0x00 (0000ms, 0356ms total)
T346C 000:478 JLINK_WriteReg(R8, 0x00000000)  returns 0x00 (0000ms, 0356ms total)
T346C 000:478 JLINK_WriteReg(R9, 0x2000016C)  returns 0x00 (0000ms, 0356ms total)
T346C 000:478 JLINK_WriteReg(R10, 0x00000000)  returns 0x00 (0000ms, 0356ms total)
T346C 000:478 JLINK_WriteReg(R11, 0x00000000)  returns 0x00 (0000ms, 0356ms total)
T346C 000:478 JLINK_WriteReg(R12, 0x00000000)  returns 0x00 (0000ms, 0356ms total)
T346C 000:478 JLINK_WriteReg(R13 (SP), 0x20001000)  returns 0x00 (0001ms, 0357ms total)
T346C 000:479 JLINK_WriteReg(R14, 0x20000001)  returns 0x00 (0000ms, 0357ms total)
T346C 000:479 JLINK_WriteReg(R15 (PC), 0x20000020)  returns 0x00 (0000ms, 0357ms total)
T346C 000:479 JLINK_WriteReg(XPSR, 0x01000000)  returns 0x00 (0000ms, 0357ms total)
T346C 000:479 JLINK_WriteReg(MSP, 0x20001000)  returns 0x00 (0000ms, 0357ms total)
T346C 000:479 JLINK_WriteReg(PSP, 0x20001000)  returns 0x00 (0000ms, 0357ms total)
T346C 000:479 JLINK_WriteReg(CFBP, 0x00000000)  returns 0x00 (0000ms, 0357ms total)
T346C 000:479 JLINK_SetBPEx(Addr = 0x20000000, Type = 0xFFFFFFF2)  returns 0x0000000B (0000ms, 0357ms total)
T346C 000:479 JLINK_Go() -- CPU_ReadMem(4 bytes @ 0xE0001000) -- CPU_WriteMem(4 bytes @ 0xE0001000) (0001ms, 0358ms total)
T346C 000:480 JLINK_IsHalted()  returns FALSE (0001ms, 0359ms total)
T346C 000:483 JLINK_IsHalted() -- CPU_ReadMem(2 bytes @ 0x20000000)  returns TRUE (0003ms, 0361ms total)
T346C 000:486 JLINK_ReadReg(R15 (PC))  returns 0x20000000 (0000ms, 0358ms total)
T346C 000:486 JLINK_ClrBPEx(BPHandle = 0x0000000B)  returns 0x00 (0000ms, 0358ms total)
T346C 000:486 JLINK_ReadReg(R0)  returns 0x00000000 (0000ms, 0358ms total)
T346C 000:486 JLINK_WriteReg(R0, 0x08002800)  returns 0x00 (0000ms, 0358ms total)
T346C 000:486 JLINK_WriteReg(R1, 0x00000400)  returns 0x00 (0000ms, 0358ms total)
T346C 000:486 JLINK_WriteReg(R2, 0x000000FF)  returns 0x00 (0000ms, 0358ms total)
T346C 000:486 JLINK_WriteReg(R3, 0x00000000)  returns 0x00 (0000ms, 0358ms total)
T346C 000:486 JLINK_WriteReg(R4, 0x00000000)  returns 0x00 (0000ms, 0358ms total)
T346C 000:486 JLINK_WriteReg(R5, 0x00000000)  returns 0x00 (0000ms, 0358ms total)
T346C 000:486 JLINK_WriteReg(R6, 0x00000000)  returns 0x00 (0000ms, 0358ms total)
T346C 000:486 JLINK_WriteReg(R7, 0x00000000)  returns 0x00 (0000ms, 0358ms total)
T346C 000:486 JLINK_WriteReg(R8, 0x00000000)  returns 0x00 (0000ms, 0358ms total)
T346C 000:486 JLINK_WriteReg(R9, 0x2000016C)  returns 0x00 (0000ms, 0358ms total)
T346C 000:486 JLINK_WriteReg(R10, 0x00000000)  returns 0x00 (0000ms, 0358ms total)
T346C 000:486 JLINK_WriteReg(R11, 0x00000000)  returns 0x00 (0000ms, 0358ms total)
T346C 000:486 JLINK_WriteReg(R12, 0x00000000)  returns 0x00 (0000ms, 0358ms total)
T346C 000:486 JLINK_WriteReg(R13 (SP), 0x20001000)  returns 0x00 (0000ms, 0358ms total)
T346C 000:486 JLINK_WriteReg(R14, 0x20000001)  returns 0x00 (0000ms, 0358ms total)
T346C 000:486 JLINK_WriteReg(R15 (PC), 0x20000020)  returns 0x00 (0000ms, 0358ms total)
T346C 000:486 JLINK_WriteReg(XPSR, 0x01000000)  returns 0x00 (0000ms, 0358ms total)
T346C 000:486 JLINK_WriteReg(MSP, 0x20001000)  returns 0x00 (0000ms, 0358ms total)
T346C 000:486 JLINK_WriteReg(PSP, 0x20001000)  returns 0x00 (0000ms, 0358ms total)
T346C 000:486 JLINK_WriteReg(CFBP, 0x00000000)  returns 0x00 (0000ms, 0358ms total)
T346C 000:486 JLINK_SetBPEx(Addr = 0x20000000, Type = 0xFFFFFFF2)  returns 0x0000000C (0000ms, 0358ms total)
T346C 000:486 JLINK_Go() -- CPU_ReadMem(4 bytes @ 0xE0001000) -- CPU_WriteMem(4 bytes @ 0xE0001000) (0003ms, 0361ms total)
T346C 000:489 JLINK_IsHalted()  returns FALSE (0000ms, 0361ms total)
T346C 000:492 JLINK_IsHalted() -- CPU_ReadMem(2 bytes @ 0x20000000)  returns TRUE (0003ms, 0364ms total)
T346C 000:495 JLINK_ReadReg(R15 (PC))  returns 0x20000000 (0000ms, 0361ms total)
T346C 000:495 JLINK_ClrBPEx(BPHandle = 0x0000000C)  returns 0x00 (0000ms, 0361ms total)
T346C 000:495 JLINK_ReadReg(R0)  returns 0x00000000 (0000ms, 0361ms total)
T346C 000:495 JLINK_WriteReg(R0, 0x00000001)  returns 0x00 (0000ms, 0361ms total)
T346C 000:495 JLINK_WriteReg(R1, 0x00000400)  returns 0x00 (0000ms, 0361ms total)
T346C 000:495 JLINK_WriteReg(R2, 0x000000FF)  returns 0x00 (0000ms, 0361ms total)
T346C 000:495 JLINK_WriteReg(R3, 0x00000000)  returns 0x00 (0000ms, 0361ms total)
T346C 000:495 JLINK_WriteReg(R4, 0x00000000)  returns 0x00 (0000ms, 0361ms total)
T346C 000:495 JLINK_WriteReg(R5, 0x00000000)  returns 0x00 (0000ms, 0361ms total)
T346C 000:495 JLINK_WriteReg(R6, 0x00000000)  returns 0x00 (0000ms, 0361ms total)
T346C 000:495 JLINK_WriteReg(R7, 0x00000000)  returns 0x00 (0000ms, 0361ms total)
T346C 000:495 JLINK_WriteReg(R8, 0x00000000)  returns 0x00 (0000ms, 0361ms total)
T346C 000:495 JLINK_WriteReg(R9, 0x2000016C)  returns 0x00 (0000ms, 0361ms total)
T346C 000:495 JLINK_WriteReg(R10, 0x00000000)  returns 0x00 (0000ms, 0361ms total)
T346C 000:495 JLINK_WriteReg(R11, 0x00000000)  returns 0x00 (0000ms, 0361ms total)
T346C 000:495 JLINK_WriteReg(R12, 0x00000000)  returns 0x00 (0000ms, 0361ms total)
T346C 000:495 JLINK_WriteReg(R13 (SP), 0x20001000)  returns 0x00 (0000ms, 0361ms total)
T346C 000:495 JLINK_WriteReg(R14, 0x20000001)  returns 0x00 (0000ms, 0361ms total)
T346C 000:495 JLINK_WriteReg(R15 (PC), 0x20000066)  returns 0x00 (0000ms, 0361ms total)
T346C 000:495 JLINK_WriteReg(XPSR, 0x01000000)  returns 0x00 (0000ms, 0361ms total)
T346C 000:495 JLINK_WriteReg(MSP, 0x20001000)  returns 0x00 (0000ms, 0361ms total)
T346C 000:495 JLINK_WriteReg(PSP, 0x20001000)  returns 0x00 (0000ms, 0361ms total)
T346C 000:495 JLINK_WriteReg(CFBP, 0x00000000)  returns 0x00 (0000ms, 0361ms total)
T346C 000:495 JLINK_SetBPEx(Addr = 0x20000000, Type = 0xFFFFFFF2)  returns 0x0000000D (0000ms, 0361ms total)
T346C 000:495 JLINK_Go() -- CPU_ReadMem(4 bytes @ 0xE0001000) -- CPU_WriteMem(4 bytes @ 0xE0001000) (0002ms, 0363ms total)
T346C 000:497 JLINK_IsHalted() -- CPU_ReadMem(2 bytes @ 0x20000000)  returns TRUE (0003ms, 0366ms total)
T346C 000:500 JLINK_ReadReg(R15 (PC))  returns 0x20000000 (0000ms, 0363ms total)
T346C 000:500 JLINK_ClrBPEx(BPHandle = 0x0000000D)  returns 0x00 (0000ms, 0363ms total)
T346C 000:500 JLINK_ReadReg(R0)  returns 0x00000000 (0000ms, 0363ms total)
T346C 000:558 JLINK_WriteMem(0x20000000, 0x0170 Bytes, ...) - Data: 00 BE 0A E0 0D 78 2D 06 68 40 08 24 40 00 00 D3 ... -- CPU_WriteMem(368 bytes @ 0x20000000)  returns 0x170 (0003ms, 0366ms total)
T346C 000:561 JLINK_WriteReg(R0, 0x08000000)  returns 0x00 (0000ms, 0366ms total)
T346C 000:561 JLINK_WriteReg(R1, 0x02DC6C00)  returns 0x00 (0000ms, 0366ms total)
T346C 000:561 JLINK_WriteReg(R2, 0x00000002)  returns 0x00 (0000ms, 0366ms total)
T346C 000:561 JLINK_WriteReg(R3, 0x00000000)  returns 0x00 (0000ms, 0366ms total)
T346C 000:561 JLINK_WriteReg(R4, 0x00000000)  returns 0x00 (0000ms, 0366ms total)
T346C 000:561 JLINK_WriteReg(R5, 0x00000000)  returns 0x00 (0000ms, 0366ms total)
T346C 000:561 JLINK_WriteReg(R6, 0x00000000)  returns 0x00 (0000ms, 0366ms total)
T346C 000:561 JLINK_WriteReg(R7, 0x00000000)  returns 0x00 (0000ms, 0366ms total)
T346C 000:561 JLINK_WriteReg(R8, 0x00000000)  returns 0x00 (0000ms, 0366ms total)
T346C 000:561 JLINK_WriteReg(R9, 0x2000016C)  returns 0x00 (0000ms, 0366ms total)
T346C 000:561 JLINK_WriteReg(R10, 0x00000000)  returns 0x00 (0000ms, 0366ms total)
T346C 000:561 JLINK_WriteReg(R11, 0x00000000)  returns 0x00 (0000ms, 0366ms total)
T346C 000:561 JLINK_WriteReg(R12, 0x00000000)  returns 0x00 (0000ms, 0366ms total)
T346C 000:561 JLINK_WriteReg(R13 (SP), 0x20001000)  returns 0x00 (0000ms, 0366ms total)
T346C 000:561 JLINK_WriteReg(R14, 0x20000001)  returns 0x00 (0000ms, 0366ms total)
T346C 000:561 JLINK_WriteReg(R15 (PC), 0x20000038)  returns 0x00 (0000ms, 0366ms total)
T346C 000:561 JLINK_WriteReg(XPSR, 0x01000000)  returns 0x00 (0000ms, 0366ms total)
T346C 000:561 JLINK_WriteReg(MSP, 0x20001000)  returns 0x00 (0000ms, 0366ms total)
T346C 000:561 JLINK_WriteReg(PSP, 0x20001000)  returns 0x00 (0000ms, 0366ms total)
T346C 000:561 JLINK_WriteReg(CFBP, 0x00000000)  returns 0x00 (0000ms, 0366ms total)
T346C 000:561 JLINK_SetBPEx(Addr = 0x20000000, Type = 0xFFFFFFF2) -- CPU_ReadMem(2 bytes @ 0x20000000)  returns 0x0000000E (0001ms, 0367ms total)
T346C 000:562 JLINK_Go() -- CPU_WriteMem(2 bytes @ 0x20000000) -- CPU_ReadMem(4 bytes @ 0xE0001000) -- CPU_WriteMem(4 bytes @ 0xE0001000) (0003ms, 0370ms total)
T346C 000:565 JLINK_IsHalted() -- CPU_ReadMem(2 bytes @ 0x20000000)  returns TRUE (0002ms, 0372ms total)
T346C 000:567 JLINK_ReadReg(R15 (PC))  returns 0x20000000 (0000ms, 0370ms total)
T346C 000:567 JLINK_ClrBPEx(BPHandle = 0x0000000E)  returns 0x00 (0000ms, 0370ms total)
T346C 000:567 JLINK_ReadReg(R0)  returns 0x00000000 (0000ms, 0370ms total)
T346C 000:568 JLINK_WriteMem(0x20000170, 0x0290 Bytes, ...) - Data: 88 12 00 20 41 01 00 08 69 10 00 08 BD 0E 00 08 ... -- CPU_WriteMem(656 bytes @ 0x20000170)  returns 0x290 (0003ms, 0373ms total)
T346C 000:571 JLINK_WriteMem(0x20000400, 0x0170 Bytes, ...) - Data: 8D E0 01 24 9C 40 A4 46 22 40 7D D0 4C 68 02 2C ... -- CPU_WriteMem(368 bytes @ 0x20000400)  returns 0x170 (0001ms, 0374ms total)
T346C 000:572 JLINK_WriteReg(R0, 0x08000000)  returns 0x00 (0000ms, 0374ms total)
T346C 000:572 JLINK_WriteReg(R1, 0x00000400)  returns 0x00 (0000ms, 0374ms total)
T346C 000:572 JLINK_WriteReg(R2, 0x20000170)  returns 0x00 (0001ms, 0375ms total)
T346C 000:573 JLINK_WriteReg(R3, 0x00000000)  returns 0x00 (0000ms, 0375ms total)
T346C 000:573 JLINK_WriteReg(R4, 0x00000000)  returns 0x00 (0000ms, 0375ms total)
T346C 000:573 JLINK_WriteReg(R5, 0x00000000)  returns 0x00 (0000ms, 0375ms total)
T346C 000:573 JLINK_WriteReg(R6, 0x00000000)  returns 0x00 (0000ms, 0375ms total)
T346C 000:573 JLINK_WriteReg(R7, 0x00000000)  returns 0x00 (0000ms, 0375ms total)
T346C 000:573 JLINK_WriteReg(R8, 0x00000000)  returns 0x00 (0000ms, 0375ms total)
T346C 000:573 JLINK_WriteReg(R9, 0x2000016C)  returns 0x00 (0000ms, 0375ms total)
T346C 000:573 JLINK_WriteReg(R10, 0x00000000)  returns 0x00 (0000ms, 0375ms total)
T346C 000:573 JLINK_WriteReg(R11, 0x00000000)  returns 0x00 (0000ms, 0375ms total)
T346C 000:573 JLINK_WriteReg(R12, 0x00000000)  returns 0x00 (0000ms, 0375ms total)
T346C 000:573 JLINK_WriteReg(R13 (SP), 0x20001000)  returns 0x00 (0000ms, 0375ms total)
T346C 000:573 JLINK_WriteReg(R14, 0x20000001)  returns 0x00 (0000ms, 0375ms total)
T346C 000:573 JLINK_WriteReg(R15 (PC), 0x200000FA)  returns 0x00 (0000ms, 0375ms total)
T346C 000:573 JLINK_WriteReg(XPSR, 0x01000000)  returns 0x00 (0000ms, 0375ms total)
T346C 000:573 JLINK_WriteReg(MSP, 0x20001000)  returns 0x00 (0000ms, 0375ms total)
T346C 000:573 JLINK_WriteReg(PSP, 0x20001000)  returns 0x00 (0000ms, 0375ms total)
T346C 000:573 JLINK_WriteReg(CFBP, 0x00000000)  returns 0x00 (0000ms, 0375ms total)
T346C 000:573 JLINK_SetBPEx(Addr = 0x20000000, Type = 0xFFFFFFF2)  returns 0x0000000F (0000ms, 0375ms total)
T346C 000:573 JLINK_Go() -- CPU_ReadMem(4 bytes @ 0xE0001000) -- CPU_WriteMem(4 bytes @ 0xE0001000) (0002ms, 0377ms total)
T346C 000:575 JLINK_IsHalted()  returns FALSE (0000ms, 0377ms total)
T346C 000:585 JLINK_IsHalted()  returns FALSE (0000ms, 0377ms total)
T346C 000:589 JLINK_IsHalted()  returns FALSE (0000ms, 0377ms total)
T346C 000:591 JLINK_IsHalted()  returns FALSE (0000ms, 0377ms total)
T346C 000:593 JLINK_IsHalted()  returns FALSE (0000ms, 0377ms total)
T346C 000:597 JLINK_IsHalted()  returns FALSE (0000ms, 0377ms total)
T346C 000:599 JLINK_IsHalted()  returns FALSE (0001ms, 0378ms total)
T346C 000:601 JLINK_IsHalted()  returns FALSE (0000ms, 0377ms total)
T346C 000:605 JLINK_IsHalted() -- CPU_ReadMem(2 bytes @ 0x20000000)  returns TRUE (0002ms, 0379ms total)
T346C 000:607 JLINK_ReadReg(R15 (PC))  returns 0x20000000 (0000ms, 0377ms total)
T346C 000:607 JLINK_ClrBPEx(BPHandle = 0x0000000F)  returns 0x00 (0000ms, 0377ms total)
T346C 000:607 JLINK_ReadReg(R0)  returns 0x00000000 (0000ms, 0377ms total)
T346C 000:608 JLINK_WriteMem(0x20000170, 0x0290 Bytes, ...) - Data: 70 47 00 00 10 00 00 20 10 B5 06 48 01 68 10 22 ... -- CPU_WriteMem(656 bytes @ 0x20000170)  returns 0x290 (0003ms, 0380ms total)
T346C 000:611 JLINK_WriteMem(0x20000400, 0x0170 Bytes, ...) - Data: 0B E0 FF F7 AB FE C1 1B 1B 48 81 42 01 D9 03 20 ... -- CPU_WriteMem(368 bytes @ 0x20000400)  returns 0x170 (0002ms, 0382ms total)
T346C 000:613 JLINK_WriteReg(R0, 0x08000400)  returns 0x00 (0000ms, 0382ms total)
T346C 000:613 JLINK_WriteReg(R1, 0x00000400)  returns 0x00 (0000ms, 0382ms total)
T346C 000:613 JLINK_WriteReg(R2, 0x20000170)  returns 0x00 (0000ms, 0382ms total)
T346C 000:613 JLINK_WriteReg(R3, 0x00000000)  returns 0x00 (0000ms, 0382ms total)
T346C 000:613 JLINK_WriteReg(R4, 0x00000000)  returns 0x00 (0000ms, 0382ms total)
T346C 000:613 JLINK_WriteReg(R5, 0x00000000)  returns 0x00 (0000ms, 0382ms total)
T346C 000:613 JLINK_WriteReg(R6, 0x00000000)  returns 0x00 (0000ms, 0382ms total)
T346C 000:613 JLINK_WriteReg(R7, 0x00000000)  returns 0x00 (0000ms, 0382ms total)
T346C 000:613 JLINK_WriteReg(R8, 0x00000000)  returns 0x00 (0001ms, 0383ms total)
T346C 000:614 JLINK_WriteReg(R9, 0x2000016C)  returns 0x00 (0000ms, 0383ms total)
T346C 000:614 JLINK_WriteReg(R10, 0x00000000)  returns 0x00 (0000ms, 0383ms total)
T346C 000:614 JLINK_WriteReg(R11, 0x00000000)  returns 0x00 (0000ms, 0383ms total)
T346C 000:614 JLINK_WriteReg(R12, 0x00000000)  returns 0x00 (0000ms, 0383ms total)
T346C 000:614 JLINK_WriteReg(R13 (SP), 0x20001000)  returns 0x00 (0000ms, 0383ms total)
T346C 000:614 JLINK_WriteReg(R14, 0x20000001)  returns 0x00 (0000ms, 0383ms total)
T346C 000:614 JLINK_WriteReg(R15 (PC), 0x200000FA)  returns 0x00 (0000ms, 0383ms total)
T346C 000:614 JLINK_WriteReg(XPSR, 0x01000000)  returns 0x00 (0000ms, 0383ms total)
T346C 000:614 JLINK_WriteReg(MSP, 0x20001000)  returns 0x00 (0000ms, 0383ms total)
T346C 000:614 JLINK_WriteReg(PSP, 0x20001000)  returns 0x00 (0000ms, 0383ms total)
T346C 000:614 JLINK_WriteReg(CFBP, 0x00000000)  returns 0x00 (0000ms, 0383ms total)
T346C 000:614 JLINK_SetBPEx(Addr = 0x20000000, Type = 0xFFFFFFF2)  returns 0x00000010 (0000ms, 0383ms total)
T346C 000:614 JLINK_Go() -- CPU_ReadMem(4 bytes @ 0xE0001000) -- CPU_WriteMem(4 bytes @ 0xE0001000) (0002ms, 0385ms total)
T346C 000:616 JLINK_IsHalted()  returns FALSE (0000ms, 0385ms total)
T346C 000:622 JLINK_IsHalted()  returns FALSE (0000ms, 0385ms total)
T346C 000:624 JLINK_IsHalted()  returns FALSE (0001ms, 0386ms total)
T346C 000:628 JLINK_IsHalted()  returns FALSE (0000ms, 0385ms total)
T346C 000:630 JLINK_IsHalted()  returns FALSE (0000ms, 0385ms total)
T346C 000:632 JLINK_IsHalted()  returns FALSE (0000ms, 0385ms total)
T346C 000:633 JLINK_IsHalted()  returns FALSE (0000ms, 0385ms total)
T346C 000:637 JLINK_IsHalted()  returns FALSE (0000ms, 0385ms total)
T346C 000:639 JLINK_IsHalted()  returns FALSE (0000ms, 0385ms total)
T346C 000:641 JLINK_IsHalted()  returns FALSE (0000ms, 0385ms total)
T346C 000:645 JLINK_IsHalted()  returns FALSE (0000ms, 0385ms total)
T346C 000:647 JLINK_IsHalted() -- CPU_ReadMem(2 bytes @ 0x20000000)  returns TRUE (0003ms, 0388ms total)
T346C 000:650 JLINK_ReadReg(R15 (PC))  returns 0x20000000 (0000ms, 0385ms total)
T346C 000:650 JLINK_ClrBPEx(BPHandle = 0x00000010)  returns 0x00 (0000ms, 0385ms total)
T346C 000:650 JLINK_ReadReg(R0)  returns 0x00000000 (0000ms, 0385ms total)
T346C 000:651 JLINK_WriteMem(0x20000170, 0x0290 Bytes, ...) - Data: 80 0F 01 28 07 D0 68 68 00 07 80 0F 02 28 09 D1 ... -- CPU_WriteMem(656 bytes @ 0x20000170)  returns 0x290 (0003ms, 0388ms total)
T346C 000:654 JLINK_WriteMem(0x20000400, 0x0170 Bytes, ...) - Data: 80 1B 02 28 47 D8 68 6B 80 07 F7 D4 20 6A 00 28 ... -- CPU_WriteMem(368 bytes @ 0x20000400)  returns 0x170 (0002ms, 0390ms total)
T346C 000:656 JLINK_WriteReg(R0, 0x08000800)  returns 0x00 (0000ms, 0390ms total)
T346C 000:656 JLINK_WriteReg(R1, 0x00000400)  returns 0x00 (0000ms, 0390ms total)
T346C 000:656 JLINK_WriteReg(R2, 0x20000170)  returns 0x00 (0000ms, 0390ms total)
T346C 000:656 JLINK_WriteReg(R3, 0x00000000)  returns 0x00 (0000ms, 0390ms total)
T346C 000:656 JLINK_WriteReg(R4, 0x00000000)  returns 0x00 (0000ms, 0390ms total)
T346C 000:656 JLINK_WriteReg(R5, 0x00000000)  returns 0x00 (0000ms, 0390ms total)
T346C 000:656 JLINK_WriteReg(R6, 0x00000000)  returns 0x00 (0000ms, 0390ms total)
T346C 000:656 JLINK_WriteReg(R7, 0x00000000)  returns 0x00 (0000ms, 0390ms total)
T346C 000:656 JLINK_WriteReg(R8, 0x00000000)  returns 0x00 (0000ms, 0390ms total)
T346C 000:656 JLINK_WriteReg(R9, 0x2000016C)  returns 0x00 (0000ms, 0390ms total)
